Rx:000073-01 03 00 7A 00 01 A5 D3 
Rx:000074-01 03 00 DE 00 01 E4 30 
Rx:000075-01 10 00 4B 00 0A 14 00 00 00 00 00 00 00 00 00 00 00 00 00 00 00 00 00 00 00 00 41 3C 
Rx:000076-02 03 01 F4 00 3C 05 E6 
Tx:000077-02 03 78 01 01 12 34 56 78 AB CD AA AA 04 D2 07 E8 04 D2 04 D2 04 D2 07 E9 04 D2 04 D2 03 E8 64 04 43 04 68 F6 00 01 42 C9 B3 33 02 02 11 22 33 44 55 66 77 88 00 00 00 00 00 00 00 00 00 00 00 00 00 00 00 00 00 00 64 04 00 00 00 00 00 02 44 FA 00 00 01 03 AA BB CC DD 11 22 99 99 04 D2 04 D2 04 D2 00 00 04 D2 07 E8 04 D2 04 D2 00 1E 28 0A 43 13 40 00 00 03 43 96 20 00 00 27 
Rx:000078-01 03 02 30 00 28 44 63 
Rx:000079-01 06 00 57 00 01 F9 DA 
Rx:000080-01 10 00 7B 00 03 06 00 00 00 00 00 00 95 4E 
Rx:000081-01 10 00 DF 00 03 06 00 00 00 00 00 00 D2 19 
Rx:000082-01 06 00 59 01 00 58 49 
Rx:000083-01 03 00 56 00 01 64 1A 
Rx:000084-01 06 00 58 00 00 08 19 
Rx:000085-01 03 00 64 00 12 84 18 
Rx:000086-01 03 00 C8 00 12 44 39 
Rx:000087-01 03 00 00 00 1E C5 C2 
Rx:000088-01 03 00 FA 00 13 24 36 
Rx:000089-01 03 00 96 00 13 E4 2B 
Rx:000090-01 06 00 1E 00 00 E9 CC 
Rx:000091-01 03 00 1F 00 11 B4 00 
Rx:000092-01 06 00 7A 00 00 A8 13 
