Rx:000940-01 06 00 57 00 01 F9 DA 
Tx:000941-01 86 02 C3 A1 
Rx:000942-01 03 00 58 00 03 84 18 
Tx:000943-01 03 06 00 02 00 06 00 05 78 B7 
Rx:000944-01 03 00 64 00 12 84 18 
Tx:000945-01 83 02 C0 F1 
Rx:000946-01 03 00 C8 00 12 44 39 
Tx:000947-01 83 02 C0 F1 
Rx:000948-01 03 00 00 00 1E C5 C2 
Tx:000949-01 83 02 C0 F1 
Rx:000950-01 03 00 FA 00 13 24 36 
Tx:000951-01 83 02 C0 F1 
Rx:000952-01 03 00 96 00 13 E4 2B 
Tx:000953-01 83 02 C0 F1 
Rx:000954-01 06 00 1E 00 01 28 0C 
Tx:000955-01 86 02 C3 A1 
Rx:000956-01 03 00 1F 00 11 B4 00 
Tx:000957-01 83 02 C0 F1 
Rx:000958-01 10 00 7A 00 03 06 00 00 00 00 00 00 C4 8B 
Tx:000959-01 90 02 CD C1 
Rx:000960-01 10 00 DE 00 03 06 00 00 00 00 00 00 83 DC 
Tx:000961-01 90 02 CD C1 
Rx:000962-01 03 00 7A 00 03 24 12 
Tx:000963-01 83 02 C0 F1 
Rx:000964-01 03 00 DE 00 03 65 F1 
Tx:000965-01 83 02 C0 F1 
Rx:000966-01 03 00 7D 00 01 14 12 
Tx:000967-01 83 02 C0 F1 
Rx:000968-01 10 00 4B 00 0A 14 00 00 00 00 00 00 00 00 00 00 00 00 00 00 00 00 00 00 00 00 41 3C 
Tx:000969-01 90 02 CD C1 
Rx:000970-01 03 00 57 00 02 75 DB 
Tx:000971-01 83 02 C0 F1 
Rx:000972-01 03 00 4B 00 0A B5 DB 
Tx:000973-01 83 02 C0 F1 
Rx:000974-01 06 00 57 00 01 F9 DA 
Tx:000975-01 86 02 C3 A1 
Rx:000976-01 03 00 58 00 03 84 18 
Tx:000977-01 03 06 00 02 00 06 00 05 78 B7 
Rx:000978-01 03 00 64 00 12 84 18 
Tx:000979-01 83 02 C0 F1 
Rx:000980-01 03 00 C8 00 12 44 39 
Tx:000981-01 83 02 C0 F1 
Rx:000982-01 03 00 00 00 1E C5 C2 
Tx:000983-01 83 02 C0 F1 
Rx:000984-01 03 00 FA 00 13 24 36 
Tx:000985-01 83 02 C0 F1 
Rx:000986-01 03 00 96 00 13 E4 2B 
Tx:000987-01 83 02 C0 F1 
Rx:000988-01 06 00 1E 00 01 28 0C 
Tx:000989-01 86 02 C3 A1 
